
T0988 000:494 SEGGER J-Link V4.80g Log File (0001ms, 0279ms total)
T0988 000:494 DLL Compiled: Feb 13 2014 20:50:02 (0001ms, 0279ms total)
T0988 000:494 Logging started @ 2014-08-05 17:27 (0002ms, 0280ms total)
T0988 000:496 JLINK_SetWarnOutHandler(...) (0000ms, 0280ms total)
T0988 000:496 JLINK_OpenEx(...)
Firmware: J-Link ARM V8 compiled Nov 25 2013 19:20:08
Hardware: V8.00
S/N: 99999994
Feature(s): RDI,FlashDL,FlashBP,JFlash,GDBFULL  returns O.K. (0271ms, 0551ms total)
T0988 000:767 JLINK_SetErrorOutHandler(...) (0000ms, 0551ms total)
T0988 000:767 JLINK_ExecCommand("ProjectFile = "I:\日常练习\江西省汽车赛\练习\The_end\KeilMDK\JLinkSettings.ini"", ...)  returns 0x00 (0003ms, 0554ms total)
T0988 000:780 JLINK_ExecCommand("Device = MK60DN512xxx10", ...)Device "MK60DN512XXX10" selected (512 KB flash, 128 KB RAM).  returns 0x00 (0013ms, 0567ms total)
T0988 000:793 JLINK_ExecCommand("DisableConnectionTimeout", ...)  returns 0x01 (0000ms, 0568ms total)
T0988 000:794 JLINK_GetHardwareVersion()  returns 0x13880 (0000ms, 0568ms total)
T0988 000:794 JLINK_GetDLLVersion()  returns 48007 (0000ms, 0568ms total)
T0988 000:794 JLINK_GetFirmwareString(...) (0000ms, 0568ms total)
T0988 000:827 JLINK_GetDLLVersion()  returns 48007 (0000ms, 0568ms total)
T0988 000:827 JLINK_GetCompileDateTime() (0000ms, 0568ms total)
T0988 000:837 JLINK_GetFirmwareString(...) (0000ms, 0568ms total)
T0988 000:842 JLINK_GetHardwareVersion()  returns 0x13880 (0001ms, 0569ms total)
T0988 000:857 JLINK_TIF_Select(JLINKARM_TIF_JTAG)  returns 0x00 (0006ms, 0575ms total)
T0988 000:863 JLINK_SetSpeed(2000) (0001ms, 0576ms total)
T0988 000:864 JLINK_GetIdData(...) >0x2F8 JTAG>TotalIRLen = 4, IRPrint = 0x01 >0x30 JTAG> >0x210 JTAG> >0x40 JTAG> >0x40 JTAG> >0x40 JTAG> >0x30 JTAG> >0x40 JTAG> >0x40 JTAG> >0x40 JTAG> >0x40 JTAG> >0x40 JTAG> >0x40 JTAG> >0x40 JTAG> >0x40 JTAG> >0x40 JTAG> >0x40 JTAG> >0x40 JTAG> >0x40 JTAG> >0x40 JTAG> >0x40 JTAG> >0x40 JTAG> >0x40 JTAG> >0x40 JTAG> >0x40 JTAG> >0x40 JTAG> >0x40 JTAG> >0x40 JTAG> >0x2F8 JTAG>TotalIRLen = 4, IRPrint = 0x01 >0x30 JTAG> >0x210 JTAG> >0x70 JTAG> >0x40 JTAG> >0x40 JTAG>
 >0x40 JTAG> >0x48 JTAG> >0x78 JTAG> >0x40 JTAG> >0x30 JTAG> >0x40 JTAG> >0x40 JTAG> >0x30 JTAG> >0x40 JTAG> >0x48 JTAG>Found Cortex-M4 r0p1, Little endian. -- CPU_WriteMem(4 bytes @ 0xE0002000) -- CPU_ReadMem(4 bytes @ 0xE000EDF0) -- CPU_ReadMem(4 bytes @ 0xE0002000)FPUnit: 6 code (BP) slots and 2 literal slots -- CPU_ReadMem(4 bytes @ 0xE000EDFC) -- CPU_WriteMem(4 bytes @ 0xE000EDFC) -- CPU_ReadMem(4 bytes @ 0xE0001000) -- CPU_WriteMem(4 bytes @ 0xE0001000) -- CPU_ReadMem(4 bytes @ 0xE00FF010)
TPIU fitted.ETM fitted.ETB present.CSTF present. -- CPU_ReadMem(4 bytes @ 0xE00FF018) -- CPU_ReadMem(4 bytes @ 0xE0042FE0) -- CPU_ReadMem(4 bytes @ 0xE0042FE4) -- CPU_ReadMem(4 bytes @ 0xE00FF01C) -- CPU_ReadMem(4 bytes @ 0xE0043FE0) -- CPU_ReadMem(4 bytes @ 0xE0043FE4) -- CPU_ReadMem(4 bytes @ 0xE00FF020) -- CPU_ReadMem(2 bytes @ 0x40052000) ScanLen=4 NumDevices=1 aId[0]=0x4BA00477 aIrRead[0]=0 aScanLen[0]=0 aScanRead[0]=0 (0112ms, 0688ms total)
T0988 000:976 JLINK_JTAG_GetDeviceID(DeviceIndex = 0)  returns 0x4BA00477 (0000ms, 0688ms total)
T0988 000:976 JLINK_JTAG_GetDeviceInfo(DeviceIndex = 0)  returns 0x00 (0000ms, 0688ms total)
T0988 000:976 JLINK_GetDeviceFamily()  returns 14 (0000ms, 0688ms total)
T0988 000:979 JLINK_ReadMem (0xE00FFFF0, 0x0010 Bytes, ...) -- CPU is running -- CPU_ReadMem(16 bytes @ 0xE00FFFF0) -- Data:  0D 00 00 00 10 00 00 00 05 00 00 00 B1 00 00 00  returns 0x00 (0002ms, 0690ms total)
T0988 000:981 JLINK_ReadMem (0xE00FFFD0, 0x0020 Bytes, ...) -- CPU is running -- CPU_ReadMem(32 bytes @ 0xE00FFFD0) -- Data:  04 00 00 00 00 00 00 00 00 00 00 00 00 00 00 00 ...  returns 0x00 (0002ms, 0692ms total)
T0988 000:983 JLINK_ReadMem (0xE00FF000, 0x0018 Bytes, ...) -- CPU is running -- CPU_ReadMem(24 bytes @ 0xE00FF000) -- Data:  03 F0 F0 FF 03 20 F0 FF 03 30 F0 FF 03 10 F0 FF ...  returns 0x00 (0002ms, 0694ms total)
T0988 000:985 JLINK_ReadMemU32(0xE000ED00, 0x0001 Items, ...) -- CPU is running -- CPU_ReadMem(4 bytes @ 0xE000ED00) -- Data:  41 C2 0F 41  returns 0x01 (0002ms, 0696ms total)
T0988 000:987 JLINK_ReadMemU32(0xE000EF40, 0x0001 Items, ...) -- CPU is running -- CPU_ReadMem(4 bytes @ 0xE000EF40) -- Data:  00 00 00 00  returns 0x01 (0001ms, 0697ms total)
T0988 000:988 JLINK_ReadMemU32(0xE000EF44, 0x0001 Items, ...) -- CPU is running -- CPU_ReadMem(4 bytes @ 0xE000EF44) -- Data:  00 00 00 00  returns 0x01 (0001ms, 0698ms total)
T0988 000:989 JLINK_SetResetType(JLINKARM_RESET_TYPE_NORMAL)  returns JLINKARM_RESET_TYPE_SOFT (0000ms, 0698ms total)
T0988 000:989 JLINK_Reset() -- CPU is running -- CPU_WriteMem(4 bytes @ 0xE000EDF0) -- CPU is running -- CPU_WriteMem(4 bytes @ 0xE000EDFC) -- CPU is running -- CPU_WriteMem(4 bytes @ 0xE000ED0C) -- CPU is running -- CPU_ReadMem(4 bytes @ 0xE000EDF0) -- CPU is running -- CPU_ReadMem(4 bytes @ 0xE000EDF0) -- CPU is running -- CPU_WriteMem(4 bytes @ 0xE000EDF0) -- CPU is running -- CPU_WriteMem(4 bytes @ 0xE000EDFC) -- CPU is running -- CPU_ReadMem(4 bytes @ 0xE000EDF0) >0x78 JTAG> >0x40 JTAG> >0x30 JTAG>
 >0x40 JTAG> >0x48 JTAG> >0x40 JTAG> -- CPU_ReadMem(8 bytes @ 0x20000000) -- CPU_WriteMem(8 bytes @ 0x20000000) >0x2C8 JTAG> >0x1E8 JTAG> >0x1E8 JTAG> >0x1E8 JTAG> >0x1E8 JTAG> >0x218 JTAG> >0x218 JTAG> >0x170 JTAG> >0x1598 JTAG> -- CPU_WriteMem(8 bytes @ 0x20000000) -- CPU_WriteMem(4 bytes @ 0xE000EDFC) -- CPU_WriteMem(4 bytes @ 0xE0001028) -- CPU_WriteMem(4 bytes @ 0xE0001038) -- CPU_WriteMem(4 bytes @ 0xE0001048) -- CPU_WriteMem(4 bytes @ 0xE0001058) -- CPU_WriteMem(4 bytes @ 0xE0002000)
 -- CPU_ReadMem(4 bytes @ 0xE000EDFC) -- CPU_ReadMem(4 bytes @ 0xE0001000) (0063ms, 0761ms total)
T0988 001:053 JLINK_Halt()  returns 0x00 (0000ms, 0762ms total)
T0988 001:053 JLINK_IsHalted()  returns TRUE (0001ms, 0763ms total)
T0988 001:054 JLINK_ReadMemU32(0xE000EDF0, 0x0001 Items, ...) -- CPU_ReadMem(4 bytes @ 0xE000EDF0) -- Data:  03 00 03 00  returns 0x01 (0001ms, 0763ms total)
T0988 001:055 JLINK_WriteU32(0xE000EDF0, 0xA05F0003) -- CPU_WriteMem(4 bytes @ 0xE000EDF0)  returns 0x00 (0001ms, 0764ms total)
T0988 001:056 JLINK_WriteU32(0xE000EDFC, 0x01000000) -- CPU_WriteMem(4 bytes @ 0xE000EDFC)  returns 0x00 (0001ms, 0765ms total)
T0988 001:071 JLINK_GetHWStatus(...)  returns 0x00 (0001ms, 0766ms total)
T0988 001:085 JLINK_GetNumBPUnits(Type = 0xFFFFFF00)  returns 0x06 (0000ms, 0766ms total)
T0988 001:085 JLINK_GetNumBPUnits(Type = 0xF0)  returns 0x2000 (0000ms, 0766ms total)
T0988 001:085 JLINK_GetNumWPUnits()  returns 0x04 (0000ms, 0766ms total)
T0988 001:095 JLINK_GetSpeed()  returns 0x7D0 (0000ms, 0766ms total)
T0988 001:104 JLINK_ReadMemU32(0xE000E004, 0x0001 Items, ...) -- CPU_ReadMem(4 bytes @ 0xE000E004) -- Data:  02 00 00 00  returns 0x01 (0002ms, 0768ms total)
T0988 001:106 JLINK_ReadMemU32(0xE000E004, 0x0001 Items, ...) -- CPU_ReadMem(4 bytes @ 0xE000E004) -- Data:  02 00 00 00  returns 0x01 (0002ms, 0770ms total)
T0988 001:108 JLINK_WriteMem(0xE0001000, 0x001C Bytes, ...) -- Data:  01 00 00 00 00 00 00 00 00 00 00 00 00 00 00 00 ... -- CPU_WriteMem(28 bytes @ 0xE0001000)  returns 0x1C (0002ms, 0772ms total)
T0988 001:110 JLINK_ReadMem (0xE0001000, 0x001C Bytes, ...) -- CPU_ReadMem(28 bytes @ 0xE0001000) -- Data:  01 00 00 40 00 00 00 00 00 00 00 00 00 00 00 00 ...  returns 0x00 (0002ms, 0774ms total)
T0988 001:112 JLINK_Halt()  returns 0x00 (0000ms, 0774ms total)
T0988 001:112 JLINK_IsHalted()  returns TRUE (0000ms, 0774ms total)
T0988 001:119 JLINK_WriteMem(0x1FFF0000, 0x0420 Bytes, ...) -- Data:  00 BE 0A E0 0D 78 2D 06 68 40 08 24 40 00 00 D3 ... -- CPU_WriteMem(1056 bytes @ 0x1FFF0000)  returns 0x420 (0007ms, 0781ms total)
T0988 001:126 JLINK_WriteReg(R0, 0x00000000)  returns 0x00 (0000ms, 0781ms total)
T0988 001:126 JLINK_WriteReg(R1, 0x00B71B00)  returns 0x00 (0001ms, 0782ms total)
T0988 001:127 JLINK_WriteReg(R2, 0x00000001)  returns 0x00 (0000ms, 0782ms total)
T0988 001:127 JLINK_WriteReg(R3, 0x00000000)  returns 0x00 (0000ms, 0782ms total)
T0988 001:127 JLINK_WriteReg(R4, 0x00000000)  returns 0x00 (0000ms, 0782ms total)
T0988 001:127 JLINK_WriteReg(R5, 0x00000000)  returns 0x00 (0000ms, 0782ms total)
T0988 001:127 JLINK_WriteReg(R6, 0x00000000)  returns 0x00 (0000ms, 0782ms total)
T0988 001:127 JLINK_WriteReg(R7, 0x00000000)  returns 0x00 (0000ms, 0782ms total)
T0988 001:127 JLINK_WriteReg(R8, 0x00000000)  returns 0x00 (0000ms, 0782ms total)
T0988 001:127 JLINK_WriteReg(R9, 0x1FFF0418)  returns 0x00 (0000ms, 0782ms total)
T0988 001:127 JLINK_WriteReg(R10, 0x00000000)  returns 0x00 (0000ms, 0782ms total)
T0988 001:127 JLINK_WriteReg(R11, 0x00000000)  returns 0x00 (0000ms, 0782ms total)
T0988 001:127 JLINK_WriteReg(R12, 0x00000000)  returns 0x00 (0000ms, 0782ms total)
T0988 001:127 JLINK_WriteReg(R13 (SP), 0x1FFF0800)  returns 0x00 (0000ms, 0782ms total)
T0988 001:127 JLINK_WriteReg(R14, 0x1FFF0001)  returns 0x00 (0000ms, 0782ms total)
T0988 001:127 JLINK_WriteReg(R15 (PC), 0x1FFF0020)  returns 0x00 (0000ms, 0782ms total)
T0988 001:127 JLINK_WriteReg(XPSR, 0x01000000)  returns 0x00 (0000ms, 0782ms total)
T0988 001:127 JLINK_WriteReg(MSP, 0x1FFF0800)  returns 0x00 (0000ms, 0782ms total)
T0988 001:127 JLINK_WriteReg(PSP, 0x1FFF0800)  returns 0x00 (0000ms, 0782ms total)
T0988 001:127 JLINK_WriteReg(CFBP, 0x00000000)  returns 0x00 (0000ms, 0782ms total)
T0988 001:127 JLINK_SetBPEx(Addr = 0x1FFF0000, Type = 0xFFFFFFF2)  returns 0x00000001 (0000ms, 0782ms total)
T0988 001:127 JLINK_Go() -- CPU_WriteMem(4 bytes @ 0xE0002008) -- CPU_WriteMem(4 bytes @ 0xE000200C) -- CPU_WriteMem(4 bytes @ 0xE0002010) -- CPU_WriteMem(4 bytes @ 0xE0002014) -- CPU_WriteMem(4 bytes @ 0xE0002018) -- CPU_WriteMem(4 bytes @ 0xE000201C) -- CPU_WriteMem(4 bytes @ 0xE0001004) (0012ms, 0794ms total)
T0988 001:139 JLINK_IsHalted()  returns TRUE (0006ms, 0800ms total)
T0988 001:145 JLINK_ReadReg(R15 (PC))  returns 0x1FFF0000 (0000ms, 0794ms total)
T0988 001:145 JLINK_ClrBPEx(BPHandle = 0x00000001)  returns 0x00 (0000ms, 0794ms total)
T0988 001:145 JLINK_ReadReg(R0)  returns 0x00000000 (0000ms, 0794ms total)
T0988 001:146 JLINK_WriteReg(R0, 0x00000000)  returns 0x00 (0000ms, 0794ms total)
T0988 001:146 JLINK_WriteReg(R1, 0x00000800)  returns 0x00 (0000ms, 0794ms total)
T0988 001:146 JLINK_WriteReg(R2, 0x000000FF)  returns 0x00 (0000ms, 0794ms total)
T0988 001:146 JLINK_WriteReg(R3, 0x00000000)  returns 0x00 (0000ms, 0794ms total)
T0988 001:146 JLINK_WriteReg(R4, 0x00000000)  returns 0x00 (0000ms, 0794ms total)
T0988 001:146 JLINK_WriteReg(R5, 0x00000000)  returns 0x00 (0000ms, 0794ms total)
T0988 001:146 JLINK_WriteReg(R6, 0x00000000)  returns 0x00 (0000ms, 0794ms total)
T0988 001:146 JLINK_WriteReg(R7, 0x00000000)  returns 0x00 (0000ms, 0794ms total)
T0988 001:146 JLINK_WriteReg(R8, 0x00000000)  returns 0x00 (0000ms, 0794ms total)
T0988 001:146 JLINK_WriteReg(R9, 0x1FFF0418)  returns 0x00 (0000ms, 0794ms total)
T0988 001:146 JLINK_WriteReg(R10, 0x00000000)  returns 0x00 (0000ms, 0794ms total)
T0988 001:146 JLINK_WriteReg(R11, 0x00000000)  returns 0x00 (0000ms, 0794ms total)
T0988 001:146 JLINK_WriteReg(R12, 0x00000000)  returns 0x00 (0000ms, 0794ms total)
T0988 001:146 JLINK_WriteReg(R13 (SP), 0x1FFF0800)  returns 0x00 (0000ms, 0794ms total)
T0988 001:146 JLINK_WriteReg(R14, 0x1FFF0001)  returns 0x00 (0001ms, 0795ms total)
T0988 001:147 JLINK_WriteReg(R15 (PC), 0x1FFF0074)  returns 0x00 (0000ms, 0795ms total)
T0988 001:147 JLINK_WriteReg(XPSR, 0x01000000)  returns 0x00 (0000ms, 0795ms total)
T0988 001:147 JLINK_WriteReg(MSP, 0x1FFF0800)  returns 0x00 (0000ms, 0795ms total)
T0988 001:147 JLINK_WriteReg(PSP, 0x1FFF0800)  returns 0x00 (0000ms, 0795ms total)
T0988 001:147 JLINK_WriteReg(CFBP, 0x00000000)  returns 0x00 (0000ms, 0795ms total)
T0988 001:147 JLINK_SetBPEx(Addr = 0x1FFF0000, Type = 0xFFFFFFF2)  returns 0x00000002 (0000ms, 0795ms total)
T0988 001:147 JLINK_Go() (0003ms, 0798ms total)
T0988 001:150 JLINK_IsHalted()  returns TRUE (0007ms, 0805ms total)
T0988 001:157 JLINK_ReadReg(R15 (PC))  returns 0x1FFF0000 (0000ms, 0798ms total)
T0988 001:157 JLINK_ClrBPEx(BPHandle = 0x00000002)  returns 0x00 (0000ms, 0798ms total)
T0988 001:157 JLINK_ReadReg(R0)  returns 0x00000001 (0000ms, 0798ms total)
T0988 001:157 JLINK_WriteReg(R0, 0x00000000)  returns 0x00 (0000ms, 0798ms total)
T0988 001:157 JLINK_WriteReg(R1, 0x00000800)  returns 0x00 (0000ms, 0798ms total)
T0988 001:157 JLINK_WriteReg(R2, 0x000000FF)  returns 0x00 (0000ms, 0798ms total)
T0988 001:157 JLINK_WriteReg(R3, 0x00000000)  returns 0x00 (0000ms, 0798ms total)
T0988 001:157 JLINK_WriteReg(R4, 0x00000000)  returns 0x00 (0000ms, 0798ms total)
T0988 001:157 JLINK_WriteReg(R5, 0x00000000)  returns 0x00 (0000ms, 0798ms total)
T0988 001:157 JLINK_WriteReg(R6, 0x00000000)  returns 0x00 (0000ms, 0798ms total)
T0988 001:157 JLINK_WriteReg(R7, 0x00000000)  returns 0x00 (0000ms, 0798ms total)
T0988 001:157 JLINK_WriteReg(R8, 0x00000000)  returns 0x00 (0000ms, 0798ms total)
T0988 001:157 JLINK_WriteReg(R9, 0x1FFF0418)  returns 0x00 (0000ms, 0798ms total)
T0988 001:157 JLINK_WriteReg(R10, 0x00000000)  returns 0x00 (0000ms, 0798ms total)
T0988 001:157 JLINK_WriteReg(R11, 0x00000000)  returns 0x00 (0000ms, 0798ms total)
T0988 001:157 JLINK_WriteReg(R12, 0x00000000)  returns 0x00 (0000ms, 0798ms total)
T0988 001:157 JLINK_WriteReg(R13 (SP), 0x1FFF0800)  returns 0x00 (0000ms, 0798ms total)
T0988 001:157 JLINK_WriteReg(R14, 0x1FFF0001)  returns 0x00 (0000ms, 0798ms total)
T0988 001:157 JLINK_WriteReg(R15 (PC), 0x1FFF00CA)  returns 0x00 (0000ms, 0798ms total)
T0988 001:157 JLINK_WriteReg(XPSR, 0x01000000)  returns 0x00 (0000ms, 0798ms total)
T0988 001:158 JLINK_WriteReg(MSP, 0x1FFF0800)  returns 0x00 (0000ms, 0799ms total)
T0988 001:158 JLINK_WriteReg(PSP, 0x1FFF0800)  returns 0x00 (0000ms, 0799ms total)
T0988 001:158 JLINK_WriteReg(CFBP, 0x00000000)  returns 0x00 (0000ms, 0799ms total)
T0988 001:158 JLINK_SetBPEx(Addr = 0x1FFF0000, Type = 0xFFFFFFF2)  returns 0x00000003 (0000ms, 0799ms total)
T0988 001:158 JLINK_Go() (0003ms, 0802ms total)
T0988 001:161 JLINK_IsHalted()  returns FALSE (0001ms, 0803ms total)
T0988 001:257 JLINK_IsHalted()  returns TRUE (0006ms, 0808ms total)
T0988 001:263 JLINK_ReadReg(R15 (PC))  returns 0x1FFF0000 (0000ms, 0802ms total)
T0988 001:263 JLINK_ClrBPEx(BPHandle = 0x00000003)  returns 0x00 (0000ms, 0802ms total)
T0988 001:263 JLINK_ReadReg(R0)  returns 0x00000000 (0000ms, 0802ms total)
T0988 001:264 JLINK_WriteReg(R0, 0x00000800)  returns 0x00 (0000ms, 0802ms total)
T0988 001:264 JLINK_WriteReg(R1, 0x00000800)  returns 0x00 (0000ms, 0802ms total)
T0988 001:264 JLINK_WriteReg(R2, 0x000000FF)  returns 0x00 (0000ms, 0802ms total)
T0988 001:264 JLINK_WriteReg(R3, 0x00000000)  returns 0x00 (0000ms, 0802ms total)
T0988 001:264 JLINK_WriteReg(R4, 0x00000000)  returns 0x00 (0000ms, 0802ms total)
T0988 001:264 JLINK_WriteReg(R5, 0x00000000)  returns 0x00 (0000ms, 0802ms total)
T0988 001:264 JLINK_WriteReg(R6, 0x00000000)  returns 0x00 (0000ms, 0802ms total)
T0988 001:264 JLINK_WriteReg(R7, 0x00000000)  returns 0x00 (0000ms, 0802ms total)
T0988 001:264 JLINK_WriteReg(R8, 0x00000000)  returns 0x00 (0000ms, 0802ms total)
T0988 001:264 JLINK_WriteReg(R9, 0x1FFF0418)  returns 0x00 (0000ms, 0802ms total)
T0988 001:264 JLINK_WriteReg(R10, 0x00000000)  returns 0x00 (0000ms, 0802ms total)
T0988 001:264 JLINK_WriteReg(R11, 0x00000000)  returns 0x00 (0000ms, 0802ms total)
T0988 001:264 JLINK_WriteReg(R12, 0x00000000)  returns 0x00 (0000ms, 0802ms total)
T0988 001:264 JLINK_WriteReg(R13 (SP), 0x1FFF0800)  returns 0x00 (0001ms, 0803ms total)
T0988 001:265 JLINK_WriteReg(R14, 0x1FFF0001)  returns 0x00 (0000ms, 0803ms total)
T0988 001:265 JLINK_WriteReg(R15 (PC), 0x1FFF0074)  returns 0x00 (0000ms, 0803ms total)
T0988 001:265 JLINK_WriteReg(XPSR, 0x01000000)  returns 0x00 (0000ms, 0803ms total)
T0988 001:265 JLINK_WriteReg(MSP, 0x1FFF0800)  returns 0x00 (0000ms, 0803ms total)
T0988 001:265 JLINK_WriteReg(PSP, 0x1FFF0800)  returns 0x00 (0000ms, 0803ms total)
T0988 001:265 JLINK_WriteReg(CFBP, 0x00000000)  returns 0x00 (0000ms, 0803ms total)
T0988 001:265 JLINK_SetBPEx(Addr = 0x1FFF0000, Type = 0xFFFFFFF2)  returns 0x00000004 (0000ms, 0803ms total)
T0988 001:266 JLINK_Go() (0003ms, 0807ms total)
T0988 001:269 JLINK_IsHalted()  returns TRUE (0006ms, 0813ms total)
T0988 001:275 JLINK_ReadReg(R15 (PC))  returns 0x1FFF0000 (0000ms, 0807ms total)
T0988 001:275 JLINK_ClrBPEx(BPHandle = 0x00000004)  returns 0x00 (0000ms, 0807ms total)
T0988 001:275 JLINK_ReadReg(R0)  returns 0x00000001 (0000ms, 0807ms total)
T0988 001:275 JLINK_WriteReg(R0, 0x00000800)  returns 0x00 (0000ms, 0807ms total)
T0988 001:275 JLINK_WriteReg(R1, 0x00000800)  returns 0x00 (0000ms, 0807ms total)
T0988 001:275 JLINK_WriteReg(R2, 0x000000FF)  returns 0x00 (0000ms, 0807ms total)
T0988 001:275 JLINK_WriteReg(R3, 0x00000000)  returns 0x00 (0000ms, 0807ms total)
T0988 001:275 JLINK_WriteReg(R4, 0x00000000)  returns 0x00 (0000ms, 0807ms total)
T0988 001:275 JLINK_WriteReg(R5, 0x00000000)  returns 0x00 (0000ms, 0807ms total)
T0988 001:275 JLINK_WriteReg(R6, 0x00000000)  returns 0x00 (0000ms, 0807ms total)
T0988 001:275 JLINK_WriteReg(R7, 0x00000000)  returns 0x00 (0000ms, 0807ms total)
T0988 001:275 JLINK_WriteReg(R8, 0x00000000)  returns 0x00 (0000ms, 0807ms total)
T0988 001:275 JLINK_WriteReg(R9, 0x1FFF0418)  returns 0x00 (0000ms, 0807ms total)
T0988 001:275 JLINK_WriteReg(R10, 0x00000000)  returns 0x00 (0001ms, 0808ms total)
T0988 001:276 JLINK_WriteReg(R11, 0x00000000)  returns 0x00 (0000ms, 0808ms total)
T0988 001:276 JLINK_WriteReg(R12, 0x00000000)  returns 0x00 (0000ms, 0808ms total)
T0988 001:276 JLINK_WriteReg(R13 (SP), 0x1FFF0800)  returns 0x00 (0000ms, 0808ms total)
T0988 001:276 JLINK_WriteReg(R14, 0x1FFF0001)  returns 0x00 (0000ms, 0808ms total)
T0988 001:276 JLINK_WriteReg(R15 (PC), 0x1FFF00CA)  returns 0x00 (0000ms, 0808ms total)
T0988 001:276 JLINK_WriteReg(XPSR, 0x01000000)  returns 0x00 (0000ms, 0808ms total)
T0988 001:276 JLINK_WriteReg(MSP, 0x1FFF0800)  returns 0x00 (0000ms, 0808ms total)
T0988 001:276 JLINK_WriteReg(PSP, 0x1FFF0800)  returns 0x00 (0000ms, 0808ms total)
T0988 001:276 JLINK_WriteReg(CFBP, 0x00000000)  returns 0x00 (0000ms, 0808ms total)
T0988 001:276 JLINK_SetBPEx(Addr = 0x1FFF0000, Type = 0xFFFFFFF2)  returns 0x00000005 (0000ms, 0808ms total)
T0988 001:276 JLINK_Go() (0003ms, 0811ms total)
T0988 001:279 JLINK_IsHalted()  returns FALSE (0001ms, 0812ms total)
T0988 001:330 JLINK_IsHalted()  returns TRUE (0006ms, 0817ms total)
T0988 001:336 JLINK_ReadReg(R15 (PC))  returns 0x1FFF0000 (0000ms, 0811ms total)
T0988 001:336 JLINK_ClrBPEx(BPHandle = 0x00000005)  returns 0x00 (0000ms, 0811ms total)
T0988 001:336 JLINK_ReadReg(R0)  returns 0x00000000 (0000ms, 0811ms total)
T0988 001:337 JLINK_WriteReg(R0, 0x00001000)  returns 0x00 (0000ms, 0811ms total)
T0988 001:337 JLINK_WriteReg(R1, 0x00000800)  returns 0x00 (0000ms, 0811ms total)
T0988 001:337 JLINK_WriteReg(R2, 0x000000FF)  returns 0x00 (0000ms, 0811ms total)
T0988 001:337 JLINK_WriteReg(R3, 0x00000000)  returns 0x00 (0000ms, 0811ms total)
T0988 001:337 JLINK_WriteReg(R4, 0x00000000)  returns 0x00 (0000ms, 0811ms total)
T0988 001:337 JLINK_WriteReg(R5, 0x00000000)  returns 0x00 (0000ms, 0811ms total)
T0988 001:337 JLINK_WriteReg(R6, 0x00000000)  returns 0x00 (0000ms, 0811ms total)
T0988 001:337 JLINK_WriteReg(R7, 0x00000000)  returns 0x00 (0000ms, 0811ms total)
T0988 001:337 JLINK_WriteReg(R8, 0x00000000)  returns 0x00 (0000ms, 0811ms total)
T0988 001:337 JLINK_WriteReg(R9, 0x1FFF0418)  returns 0x00 (0000ms, 0811ms total)
T0988 001:337 JLINK_WriteReg(R10, 0x00000000)  returns 0x00 (0001ms, 0812ms total)
T0988 001:338 JLINK_WriteReg(R11, 0x00000000)  returns 0x00 (0000ms, 0812ms total)
T0988 001:338 JLINK_WriteReg(R12, 0x00000000)  returns 0x00 (0000ms, 0812ms total)
T0988 001:338 JLINK_WriteReg(R13 (SP), 0x1FFF0800)  returns 0x00 (0000ms, 0812ms total)
T0988 001:338 JLINK_WriteReg(R14, 0x1FFF0001)  returns 0x00 (0000ms, 0812ms total)
T0988 001:338 JLINK_WriteReg(R15 (PC), 0x1FFF0074)  returns 0x00 (0000ms, 0812ms total)
T0988 001:338 JLINK_WriteReg(XPSR, 0x01000000)  returns 0x00 (0000ms, 0812ms total)
T0988 001:338 JLINK_WriteReg(MSP, 0x1FFF0800)  returns 0x00 (0000ms, 0812ms total)
T0988 001:338 JLINK_WriteReg(PSP, 0x1FFF0800)  returns 0x00 (0000ms, 0812ms total)
T0988 001:338 JLINK_WriteReg(CFBP, 0x00000000)  returns 0x00 (0000ms, 0812ms total)
T0988 001:338 JLINK_SetBPEx(Addr = 0x1FFF0000, Type = 0xFFFFFFF2)  returns 0x00000006 (0000ms, 0812ms total)
T0988 001:338 JLINK_Go() (0003ms, 0815ms total)
T0988 001:341 JLINK_IsHalted()  returns TRUE (0006ms, 0821ms total)
T0988 001:347 JLINK_ReadReg(R15 (PC))  returns 0x1FFF0000 (0000ms, 0815ms total)
T0988 001:347 JLINK_ClrBPEx(BPHandle = 0x00000006)  returns 0x00 (0000ms, 0815ms total)
T0988 001:347 JLINK_ReadReg(R0)  returns 0x00000001 (0000ms, 0815ms total)
T0988 001:347 JLINK_WriteReg(R0, 0x00001000)  returns 0x00 (0000ms, 0815ms total)
T0988 001:347 JLINK_WriteReg(R1, 0x00000800)  returns 0x00 (0000ms, 0815ms total)
T0988 001:347 JLINK_WriteReg(R2, 0x000000FF)  returns 0x00 (0000ms, 0815ms total)
T0988 001:347 JLINK_WriteReg(R3, 0x00000000)  returns 0x00 (0000ms, 0815ms total)
T0988 001:347 JLINK_WriteReg(R4, 0x00000000)  returns 0x00 (0000ms, 0815ms total)
T0988 001:347 JLINK_WriteReg(R5, 0x00000000)  returns 0x00 (0000ms, 0815ms total)
T0988 001:347 JLINK_WriteReg(R6, 0x00000000)  returns 0x00 (0000ms, 0815ms total)
T0988 001:347 JLINK_WriteReg(R7, 0x00000000)  returns 0x00 (0000ms, 0815ms total)
T0988 001:347 JLINK_WriteReg(R8, 0x00000000)  returns 0x00 (0000ms, 0815ms total)
T0988 001:347 JLINK_WriteReg(R9, 0x1FFF0418)  returns 0x00 (0000ms, 0815ms total)
T0988 001:347 JLINK_WriteReg(R10, 0x00000000)  returns 0x00 (0000ms, 0815ms total)
T0988 001:347 JLINK_WriteReg(R11, 0x00000000)  returns 0x00 (0000ms, 0815ms total)
T0988 001:347 JLINK_WriteReg(R12, 0x00000000)  returns 0x00 (0000ms, 0815ms total)
T0988 001:347 JLINK_WriteReg(R13 (SP), 0x1FFF0800)  returns 0x00 (0000ms, 0815ms total)
T0988 001:347 JLINK_WriteReg(R14, 0x1FFF0001)  returns 0x00 (0000ms, 0815ms total)
T0988 001:347 JLINK_WriteReg(R15 (PC), 0x1FFF00CA)  returns 0x00 (0000ms, 0815ms total)
T0988 001:348 JLINK_WriteReg(XPSR, 0x01000000)  returns 0x00 (0000ms, 0816ms total)
T0988 001:348 JLINK_WriteReg(MSP, 0x1FFF0800)  returns 0x00 (0000ms, 0816ms total)
T0988 001:348 JLINK_WriteReg(PSP, 0x1FFF0800)  returns 0x00 (0000ms, 0816ms total)
T0988 001:348 JLINK_WriteReg(CFBP, 0x00000000)  returns 0x00 (0000ms, 0816ms total)
T0988 001:348 JLINK_SetBPEx(Addr = 0x1FFF0000, Type = 0xFFFFFFF2)  returns 0x00000007 (0000ms, 0816ms total)
T0988 001:348 JLINK_Go() (0003ms, 0819ms total)
T0988 001:351 JLINK_IsHalted()  returns FALSE (0001ms, 0820ms total)
T0988 001:353 JLINK_IsHalted()  returns FALSE (0001ms, 0820ms total)
T0988 001:355 JLINK_IsHalted()  returns FALSE (0001ms, 0820ms total)
T0988 001:357 JLINK_IsHalted()  returns TRUE (0006ms, 0825ms total)
T0988 001:363 JLINK_ReadReg(R15 (PC))  returns 0x1FFF0000 (0000ms, 0819ms total)
T0988 001:363 JLINK_ClrBPEx(BPHandle = 0x00000007)  returns 0x00 (0000ms, 0819ms total)
T0988 001:363 JLINK_ReadReg(R0)  returns 0x00000000 (0000ms, 0819ms total)
T0988 001:364 JLINK_WriteReg(R0, 0x00001800)  returns 0x00 (0000ms, 0819ms total)
T0988 001:364 JLINK_WriteReg(R1, 0x00000800)  returns 0x00 (0000ms, 0819ms total)
T0988 001:364 JLINK_WriteReg(R2, 0x000000FF)  returns 0x00 (0000ms, 0819ms total)
T0988 001:364 JLINK_WriteReg(R3, 0x00000000)  returns 0x00 (0000ms, 0819ms total)
T0988 001:364 JLINK_WriteReg(R4, 0x00000000)  returns 0x00 (0000ms, 0819ms total)
T0988 001:364 JLINK_WriteReg(R5, 0x00000000)  returns 0x00 (0000ms, 0819ms total)
T0988 001:364 JLINK_WriteReg(R6, 0x00000000)  returns 0x00 (0000ms, 0819ms total)
T0988 001:364 JLINK_WriteReg(R7, 0x00000000)  returns 0x00 (0000ms, 0819ms total)
T0988 001:364 JLINK_WriteReg(R8, 0x00000000)  returns 0x00 (0000ms, 0819ms total)
T0988 001:364 JLINK_WriteReg(R9, 0x1FFF0418)  returns 0x00 (0000ms, 0819ms total)
T0988 001:364 JLINK_WriteReg(R10, 0x00000000)  returns 0x00 (0000ms, 0819ms total)
T0988 001:364 JLINK_WriteReg(R11, 0x00000000)  returns 0x00 (0000ms, 0819ms total)
T0988 001:364 JLINK_WriteReg(R12, 0x00000000)  returns 0x00 (0000ms, 0819ms total)
T0988 001:364 JLINK_WriteReg(R13 (SP), 0x1FFF0800)  returns 0x00 (0000ms, 0819ms total)
T0988 001:364 JLINK_WriteReg(R14, 0x1FFF0001)  returns 0x00 (0000ms, 0819ms total)
T0988 001:364 JLINK_WriteReg(R15 (PC), 0x1FFF0074)  returns 0x00 (0000ms, 0819ms total)
T0988 001:364 JLINK_WriteReg(XPSR, 0x01000000)  returns 0x00 (0000ms, 0819ms total)
T0988 001:364 JLINK_WriteReg(MSP, 0x1FFF0800)  returns 0x00 (0000ms, 0819ms total)
T0988 001:364 JLINK_WriteReg(PSP, 0x1FFF0800)  returns 0x00 (0000ms, 0819ms total)
T0988 001:364 JLINK_WriteReg(CFBP, 0x00000000)  returns 0x00 (0000ms, 0819ms total)
T0988 001:364 JLINK_SetBPEx(Addr = 0x1FFF0000, Type = 0xFFFFFFF2)  returns 0x00000008 (0000ms, 0819ms total)
T0988 001:364 JLINK_Go() (0006ms, 0825ms total)
T0988 001:370 JLINK_IsHalted()  returns TRUE (0007ms, 0832ms total)
T0988 001:377 JLINK_ReadReg(R15 (PC))  returns 0x1FFF0000 (0000ms, 0825ms total)
T0988 001:377 JLINK_ClrBPEx(BPHandle = 0x00000008)  returns 0x00 (0000ms, 0825ms total)
T0988 001:377 JLINK_ReadReg(R0)  returns 0x00000001 (0000ms, 0825ms total)
T0988 001:377 JLINK_WriteReg(R0, 0x00001800)  returns 0x00 (0000ms, 0825ms total)
T0988 001:377 JLINK_WriteReg(R1, 0x00000800)  returns 0x00 (0000ms, 0825ms total)
T0988 001:377 JLINK_WriteReg(R2, 0x000000FF)  returns 0x00 (0000ms, 0825ms total)
T0988 001:377 JLINK_WriteReg(R3, 0x00000000)  returns 0x00 (0000ms, 0825ms total)
T0988 001:377 JLINK_WriteReg(R4, 0x00000000)  returns 0x00 (0000ms, 0825ms total)
T0988 001:377 JLINK_WriteReg(R5, 0x00000000)  returns 0x00 (0000ms, 0825ms total)
T0988 001:377 JLINK_WriteReg(R6, 0x00000000)  returns 0x00 (0000ms, 0825ms total)
T0988 001:377 JLINK_WriteReg(R7, 0x00000000)  returns 0x00 (0000ms, 0825ms total)
T0988 001:377 JLINK_WriteReg(R8, 0x00000000)  returns 0x00 (0000ms, 0825ms total)
T0988 001:377 JLINK_WriteReg(R9, 0x1FFF0418)  returns 0x00 (0000ms, 0825ms total)
T0988 001:377 JLINK_WriteReg(R10, 0x00000000)  returns 0x00 (0001ms, 0826ms total)
T0988 001:378 JLINK_WriteReg(R11, 0x00000000)  returns 0x00 (0000ms, 0826ms total)
T0988 001:378 JLINK_WriteReg(R12, 0x00000000)  returns 0x00 (0000ms, 0826ms total)
T0988 001:378 JLINK_WriteReg(R13 (SP), 0x1FFF0800)  returns 0x00 (0000ms, 0826ms total)
T0988 001:378 JLINK_WriteReg(R14, 0x1FFF0001)  returns 0x00 (0000ms, 0826ms total)
T0988 001:378 JLINK_WriteReg(R15 (PC), 0x1FFF00CA)  returns 0x00 (0000ms, 0826ms total)
T0988 001:378 JLINK_WriteReg(XPSR, 0x01000000)  returns 0x00 (0000ms, 0826ms total)
T0988 001:378 JLINK_WriteReg(MSP, 0x1FFF0800)  returns 0x00 (0000ms, 0826ms total)
T0988 001:378 JLINK_WriteReg(PSP, 0x1FFF0800)  returns 0x00 (0000ms, 0826ms total)
T0988 001:378 JLINK_WriteReg(CFBP, 0x00000000)  returns 0x00 (0000ms, 0826ms total)
T0988 001:378 JLINK_SetBPEx(Addr = 0x1FFF0000, Type = 0xFFFFFFF2)  returns 0x00000009 (0000ms, 0826ms total)
T0988 001:378 JLINK_Go() (0006ms, 0832ms total)
T0988 001:384 JLINK_IsHalted()  returns FALSE (0001ms, 0833ms total)
T0988 001:428 JLINK_IsHalted()  returns TRUE (0005ms, 0837ms total)
T0988 001:434 JLINK_ReadReg(R15 (PC))  returns 0x1FFF0000 (0000ms, 0832ms total)
T0988 001:434 JLINK_ClrBPEx(BPHandle = 0x00000009)  returns 0x00 (0000ms, 0832ms total)
T0988 001:434 JLINK_ReadReg(R0)  returns 0x00000000 (0000ms, 0832ms total)
T0988 001:434 JLINK_WriteReg(R0, 0x00002000)  returns 0x00 (0000ms, 0832ms total)
T0988 001:434 JLINK_WriteReg(R1, 0x00000800)  returns 0x00 (0000ms, 0832ms total)
T0988 001:434 JLINK_WriteReg(R2, 0x000000FF)  returns 0x00 (0000ms, 0832ms total)
T0988 001:435 JLINK_WriteReg(R3, 0x00000000)  returns 0x00 (0000ms, 0832ms total)
T0988 001:435 JLINK_WriteReg(R4, 0x00000000)  returns 0x00 (0000ms, 0832ms total)
T0988 001:435 JLINK_WriteReg(R5, 0x00000000)  returns 0x00 (0000ms, 0832ms total)
T0988 001:435 JLINK_WriteReg(R6, 0x00000000)  returns 0x00 (0000ms, 0832ms total)
T0988 001:435 JLINK_WriteReg(R7, 0x00000000)  returns 0x00 (0000ms, 0832ms total)
T0988 001:435 JLINK_WriteReg(R8, 0x00000000)  returns 0x00 (0000ms, 0832ms total)
T0988 001:435 JLINK_WriteReg(R9, 0x1FFF0418)  returns 0x00 (0000ms, 0832ms total)
T0988 001:435 JLINK_WriteReg(R10, 0x00000000)  returns 0x00 (0000ms, 0832ms total)
T0988 001:435 JLINK_WriteReg(R11, 0x00000000)  returns 0x00 (0000ms, 0832ms total)
T0988 001:435 JLINK_WriteReg(R12, 0x00000000)  returns 0x00 (0000ms, 0832ms total)
T0988 001:435 JLINK_WriteReg(R13 (SP), 0x1FFF0800)  returns 0x00 (0000ms, 0832ms total)
T0988 001:435 JLINK_WriteReg(R14, 0x1FFF0001)  returns 0x00 (0000ms, 0832ms total)
T0988 001:435 JLINK_WriteReg(R15 (PC), 0x1FFF0074)  returns 0x00 (0000ms, 0832ms total)
T0988 001:435 JLINK_WriteReg(XPSR, 0x01000000)  returns 0x00 (0000ms, 0832ms total)
T0988 001:435 JLINK_WriteReg(MSP, 0x1FFF0800)  returns 0x00 (0000ms, 0832ms total)
T0988 001:435 JLINK_WriteReg(PSP, 0x1FFF0800)  returns 0x00 (0000ms, 0832ms total)
T0988 001:435 JLINK_WriteReg(CFBP, 0x00000000)  returns 0x00 (0000ms, 0832ms total)
T0988 001:435 JLINK_SetBPEx(Addr = 0x1FFF0000, Type = 0xFFFFFFF2)  returns 0x0000000A (0000ms, 0832ms total)
T0988 001:435 JLINK_Go() (0003ms, 0835ms total)
T0988 001:438 JLINK_IsHalted()  returns TRUE (0006ms, 0841ms total)
T0988 001:444 JLINK_ReadReg(R15 (PC))  returns 0x1FFF0000 (0001ms, 0836ms total)
T0988 001:445 JLINK_ClrBPEx(BPHandle = 0x0000000A)  returns 0x00 (0000ms, 0836ms total)
T0988 001:445 JLINK_ReadReg(R0)  returns 0x00000001 (0000ms, 0836ms total)
T0988 001:445 JLINK_WriteReg(R0, 0x00002000)  returns 0x00 (0000ms, 0836ms total)
T0988 001:445 JLINK_WriteReg(R1, 0x00000800)  returns 0x00 (0000ms, 0836ms total)
T0988 001:445 JLINK_WriteReg(R2, 0x000000FF)  returns 0x00 (0000ms, 0836ms total)
T0988 001:445 JLINK_WriteReg(R3, 0x00000000)  returns 0x00 (0000ms, 0836ms total)
T0988 001:445 JLINK_WriteReg(R4, 0x00000000)  returns 0x00 (0000ms, 0836ms total)
T0988 001:445 JLINK_WriteReg(R5, 0x00000000)  returns 0x00 (0000ms, 0836ms total)
T0988 001:445 JLINK_WriteReg(R6, 0x00000000)  returns 0x00 (0000ms, 0836ms total)
T0988 001:445 JLINK_WriteReg(R7, 0x00000000)  returns 0x00 (0000ms, 0836ms total)
T0988 001:445 JLINK_WriteReg(R8, 0x00000000)  returns 0x00 (0000ms, 0836ms total)
T0988 001:445 JLINK_WriteReg(R9, 0x1FFF0418)  returns 0x00 (0000ms, 0836ms total)
T0988 001:445 JLINK_WriteReg(R10, 0x00000000)  returns 0x00 (0000ms, 0836ms total)
T0988 001:445 JLINK_WriteReg(R11, 0x00000000)  returns 0x00 (0000ms, 0836ms total)
T0988 001:445 JLINK_WriteReg(R12, 0x00000000)  returns 0x00 (0000ms, 0836ms total)
T0988 001:445 JLINK_WriteReg(R13 (SP), 0x1FFF0800)  returns 0x00 (0000ms, 0836ms total)
T0988 001:445 JLINK_WriteReg(R14, 0x1FFF0001)  returns 0x00 (0000ms, 0836ms total)
T0988 001:445 JLINK_WriteReg(R15 (PC), 0x1FFF00CA)  returns 0x00 (0000ms, 0836ms total)
T0988 001:445 JLINK_WriteReg(XPSR, 0x01000000)  returns 0x00 (0000ms, 0836ms total)
T0988 001:445 JLINK_WriteReg(MSP, 0x1FFF0800)  returns 0x00 (0000ms, 0836ms total)
T0988 001:445 JLINK_WriteReg(PSP, 0x1FFF0800)  returns 0x00 (0000ms, 0836ms total)
T0988 001:445 JLINK_WriteReg(CFBP, 0x00000000)  returns 0x00 (0000ms, 0836ms total)
T0988 001:445 JLINK_SetBPEx(Addr = 0x1FFF0000, Type = 0xFFFFFFF2)  returns 0x0000000B (0000ms, 0836ms total)
T0988 001:445 JLINK_Go() (0003ms, 0839ms total)
T0988 001:448 JLINK_IsHalted()  returns FALSE (0001ms, 0840ms total)
T0988 001:450 JLINK_IsHalted()  returns FALSE (0000ms, 0839ms total)
T0988 001:451 JLINK_IsHalted()  returns FALSE (0000ms, 0839ms total)
T0988 001:452 JLINK_IsHalted()  returns FALSE (0002ms, 0841ms total)
T0988 001:455 JLINK_IsHalted()  returns TRUE (0006ms, 0845ms total)
T0988 001:461 JLINK_ReadReg(R15 (PC))  returns 0x1FFF0000 (0000ms, 0839ms total)
T0988 001:461 JLINK_ClrBPEx(BPHandle = 0x0000000B)  returns 0x00 (0001ms, 0840ms total)
T0988 001:462 JLINK_ReadReg(R0)  returns 0x00000000 (0000ms, 0840ms total)
T0988 001:462 JLINK_WriteReg(R0, 0x00002800)  returns 0x00 (0000ms, 0840ms total)
T0988 001:462 JLINK_WriteReg(R1, 0x00000800)  returns 0x00 (0000ms, 0840ms total)
T0988 001:462 JLINK_WriteReg(R2, 0x000000FF)  returns 0x00 (0000ms, 0840ms total)
T0988 001:462 JLINK_WriteReg(R3, 0x00000000)  returns 0x00 (0000ms, 0840ms total)
T0988 001:463 JLINK_WriteReg(R4, 0x00000000)  returns 0x00 (0000ms, 0841ms total)
T0988 001:463 JLINK_WriteReg(R5, 0x00000000)  returns 0x00 (0000ms, 0841ms total)
T0988 001:463 JLINK_WriteReg(R6, 0x00000000)  returns 0x00 (0000ms, 0841ms total)
T0988 001:463 JLINK_WriteReg(R7, 0x00000000)  returns 0x00 (0000ms, 0841ms total)
T0988 001:463 JLINK_WriteReg(R8, 0x00000000)  returns 0x00 (0000ms, 0841ms total)
T0988 001:463 JLINK_WriteReg(R9, 0x1FFF0418)  returns 0x00 (0000ms, 0841ms total)
T0988 001:463 JLINK_WriteReg(R10, 0x00000000)  returns 0x00 (0000ms, 0841ms total)
T0988 001:463 JLINK_WriteReg(R11, 0x00000000)  returns 0x00 (0000ms, 0841ms total)
T0988 001:463 JLINK_WriteReg(R12, 0x00000000)  returns 0x00 (0000ms, 0841ms total)
T0988 001:463 JLINK_WriteReg(R13 (SP), 0x1FFF0800)  returns 0x00 (0000ms, 0841ms total)
T0988 001:463 JLINK_WriteReg(R14, 0x1FFF0001)  returns 0x00 (0000ms, 0841ms total)
T0988 001:463 JLINK_WriteReg(R15 (PC), 0x1FFF0074)  returns 0x00 (0000ms, 0841ms total)
T0988 001:463 JLINK_WriteReg(XPSR, 0x01000000)  returns 0x00 (0000ms, 0841ms total)
T0988 001:463 JLINK_WriteReg(MSP, 0x1FFF0800)  returns 0x00 (0000ms, 0841ms total)
T0988 001:463 JLINK_WriteReg(PSP, 0x1FFF0800)  returns 0x00 (0000ms, 0841ms total)
T0988 001:463 JLINK_WriteReg(CFBP, 0x00000000)  returns 0x00 (0000ms, 0841ms total)
T0988 001:463 JLINK_SetBPEx(Addr = 0x1FFF0000, Type = 0xFFFFFFF2)  returns 0x0000000C (0000ms, 0841ms total)
T0988 001:463 JLINK_Go() (0003ms, 0844ms total)
T0988 001:466 JLINK_IsHalted()  returns TRUE (0006ms, 0850ms total)
T0988 001:472 JLINK_ReadReg(R15 (PC))  returns 0x1FFF0000 (0000ms, 0844ms total)
T0988 001:472 JLINK_ClrBPEx(BPHandle = 0x0000000C)  returns 0x00 (0000ms, 0844ms total)
T0988 001:472 JLINK_ReadReg(R0)  returns 0x00000001 (0001ms, 0845ms total)
T0988 001:473 JLINK_WriteReg(R0, 0x00002800)  returns 0x00 (0000ms, 0845ms total)
T0988 001:473 JLINK_WriteReg(R1, 0x00000800)  returns 0x00 (0000ms, 0845ms total)
T0988 001:473 JLINK_WriteReg(R2, 0x000000FF)  returns 0x00 (0000ms, 0845ms total)
T0988 001:473 JLINK_WriteReg(R3, 0x00000000)  returns 0x00 (0000ms, 0845ms total)
T0988 001:473 JLINK_WriteReg(R4, 0x00000000)  returns 0x00 (0000ms, 0845ms total)
T0988 001:473 JLINK_WriteReg(R5, 0x00000000)  returns 0x00 (0000ms, 0845ms total)
T0988 001:473 JLINK_WriteReg(R6, 0x00000000)  returns 0x00 (0000ms, 0845ms total)
T0988 001:473 JLINK_WriteReg(R7, 0x00000000)  returns 0x00 (0000ms, 0845ms total)
T0988 001:473 JLINK_WriteReg(R8, 0x00000000)  returns 0x00 (0000ms, 0845ms total)
T0988 001:473 JLINK_WriteReg(R9, 0x1FFF0418)  returns 0x00 (0000ms, 0845ms total)
T0988 001:473 JLINK_WriteReg(R10, 0x00000000)  returns 0x00 (0000ms, 0845ms total)
T0988 001:473 JLINK_WriteReg(R11, 0x00000000)  returns 0x00 (0000ms, 0845ms total)
T0988 001:473 JLINK_WriteReg(R12, 0x00000000)  returns 0x00 (0000ms, 0845ms total)
T0988 001:473 JLINK_WriteReg(R13 (SP), 0x1FFF0800)  returns 0x00 (0000ms, 0845ms total)
T0988 001:473 JLINK_WriteReg(R14, 0x1FFF0001)  returns 0x00 (0000ms, 0845ms total)
T0988 001:473 JLINK_WriteReg(R15 (PC), 0x1FFF00CA)  returns 0x00 (0000ms, 0845ms total)
T0988 001:473 JLINK_WriteReg(XPSR, 0x01000000)  returns 0x00 (0000ms, 0845ms total)
T0988 001:473 JLINK_WriteReg(MSP, 0x1FFF0800)  returns 0x00 (0000ms, 0845ms total)
T0988 001:473 JLINK_WriteReg(PSP, 0x1FFF0800)  returns 0x00 (0000ms, 0845ms total)
T0988 001:473 JLINK_WriteReg(CFBP, 0x00000000)  returns 0x00 (0000ms, 0845ms total)
T0988 001:473 JLINK_SetBPEx(Addr = 0x1FFF0000, Type = 0xFFFFFFF2)  returns 0x0000000D (0000ms, 0845ms total)
T0988 001:473 JLINK_Go() (0003ms, 0848ms total)
T0988 001:476 JLINK_IsHalted()  returns FALSE (0001ms, 0849ms total)
T0988 001:478 JLINK_IsHalted()  returns FALSE (0000ms, 0848ms total)
T0988 001:479 JLINK_IsHalted()  returns FALSE (0000ms, 0848ms total)
T0988 001:480 JLINK_IsHalted()  returns FALSE (0000ms, 0848ms total)
T0988 001:481 JLINK_IsHalted()  returns FALSE (0000ms, 0848ms total)
T0988 001:482 JLINK_IsHalted()  returns TRUE (0006ms, 0854ms total)
T0988 001:488 JLINK_ReadReg(R15 (PC))  returns 0x1FFF0000 (0000ms, 0848ms total)
T0988 001:488 JLINK_ClrBPEx(BPHandle = 0x0000000D)  returns 0x00 (0001ms, 0849ms total)
T0988 001:489 JLINK_ReadReg(R0)  returns 0x00000000 (0000ms, 0849ms total)
T0988 001:489 JLINK_WriteReg(R0, 0x00003000)  returns 0x00 (0000ms, 0849ms total)
T0988 001:489 JLINK_WriteReg(R1, 0x00000800)  returns 0x00 (0000ms, 0849ms total)
T0988 001:489 JLINK_WriteReg(R2, 0x000000FF)  returns 0x00 (0000ms, 0849ms total)
T0988 001:489 JLINK_WriteReg(R3, 0x00000000)  returns 0x00 (0000ms, 0849ms total)
T0988 001:489 JLINK_WriteReg(R4, 0x00000000)  returns 0x00 (0000ms, 0849ms total)
T0988 001:489 JLINK_WriteReg(R5, 0x00000000)  returns 0x00 (0001ms, 0850ms total)
T0988 001:490 JLINK_WriteReg(R6, 0x00000000)  returns 0x00 (0000ms, 0850ms total)
T0988 001:490 JLINK_WriteReg(R7, 0x00000000)  returns 0x00 (0000ms, 0850ms total)
T0988 001:490 JLINK_WriteReg(R8, 0x00000000)  returns 0x00 (0000ms, 0850ms total)
T0988 001:490 JLINK_WriteReg(R9, 0x1FFF0418)  returns 0x00 (0000ms, 0850ms total)
T0988 001:490 JLINK_WriteReg(R10, 0x00000000)  returns 0x00 (0000ms, 0850ms total)
T0988 001:490 JLINK_WriteReg(R11, 0x00000000)  returns 0x00 (0000ms, 0850ms total)
T0988 001:490 JLINK_WriteReg(R12, 0x00000000)  returns 0x00 (0000ms, 0850ms total)
T0988 001:490 JLINK_WriteReg(R13 (SP), 0x1FFF0800)  returns 0x00 (0000ms, 0850ms total)
T0988 001:490 JLINK_WriteReg(R14, 0x1FFF0001)  returns 0x00 (0000ms, 0850ms total)
T0988 001:490 JLINK_WriteReg(R15 (PC), 0x1FFF0074)  returns 0x00 (0000ms, 0850ms total)
T0988 001:490 JLINK_WriteReg(XPSR, 0x01000000)  returns 0x00 (0000ms, 0850ms total)
T0988 001:490 JLINK_WriteReg(MSP, 0x1FFF0800)  returns 0x00 (0000ms, 0850ms total)
T0988 001:490 JLINK_WriteReg(PSP, 0x1FFF0800)  returns 0x00 (0000ms, 0850ms total)
T0988 001:490 JLINK_WriteReg(CFBP, 0x00000000)  returns 0x00 (0000ms, 0850ms total)
T0988 001:490 JLINK_SetBPEx(Addr = 0x1FFF0000, Type = 0xFFFFFFF2)  returns 0x0000000E (0000ms, 0850ms total)
T0988 001:490 JLINK_Go() (0003ms, 0853ms total)
T0988 001:493 JLINK_IsHalted()  returns TRUE (0006ms, 0859ms total)
T0988 001:499 JLINK_ReadReg(R15 (PC))  returns 0x1FFF0000 (0000ms, 0853ms total)
T0988 001:499 JLINK_ClrBPEx(BPHandle = 0x0000000E)  returns 0x00 (0000ms, 0853ms total)
T0988 001:500 JLINK_ReadReg(R0)  returns 0x00000001 (0000ms, 0854ms total)
T0988 001:500 JLINK_WriteReg(R0, 0x00003000)  returns 0x00 (0000ms, 0854ms total)
T0988 001:500 JLINK_WriteReg(R1, 0x00000800)  returns 0x00 (0000ms, 0854ms total)
T0988 001:500 JLINK_WriteReg(R2, 0x000000FF)  returns 0x00 (0000ms, 0854ms total)
T0988 001:500 JLINK_WriteReg(R3, 0x00000000)  returns 0x00 (0000ms, 0854ms total)
T0988 001:500 JLINK_WriteReg(R4, 0x00000000)  returns 0x00 (0000ms, 0854ms total)
T0988 001:500 JLINK_WriteReg(R5, 0x00000000)  returns 0x00 (0000ms, 0854ms total)
T0988 001:500 JLINK_WriteReg(R6, 0x00000000)  returns 0x00 (0000ms, 0854ms total)
T0988 001:500 JLINK_WriteReg(R7, 0x00000000)  returns 0x00 (0000ms, 0854ms total)
T0988 001:500 JLINK_WriteReg(R8, 0x00000000)  returns 0x00 (0000ms, 0854ms total)
T0988 001:500 JLINK_WriteReg(R9, 0x1FFF0418)  returns 0x00 (0000ms, 0854ms total)
T0988 001:500 JLINK_WriteReg(R10, 0x00000000)  returns 0x00 (0000ms, 0854ms total)
T0988 001:500 JLINK_WriteReg(R11, 0x00000000)  returns 0x00 (0000ms, 0854ms total)
T0988 001:500 JLINK_WriteReg(R12, 0x00000000)  returns 0x00 (0000ms, 0854ms total)
T0988 001:500 JLINK_WriteReg(R13 (SP), 0x1FFF0800)  returns 0x00 (0000ms, 0854ms total)
T0988 001:500 JLINK_WriteReg(R14, 0x1FFF0001)  returns 0x00 (0000ms, 0854ms total)
T0988 001:500 JLINK_WriteReg(R15 (PC), 0x1FFF00CA)  returns 0x00 (0000ms, 0854ms total)
T0988 001:500 JLINK_WriteReg(XPSR, 0x01000000)  returns 0x00 (0000ms, 0854ms total)
T0988 001:500 JLINK_WriteReg(MSP, 0x1FFF0800)  returns 0x00 (0000ms, 0854ms total)
T0988 001:500 JLINK_WriteReg(PSP, 0x1FFF0800)  returns 0x00 (0000ms, 0854ms total)
T0988 001:500 JLINK_WriteReg(CFBP, 0x00000000)  returns 0x00 (0000ms, 0854ms total)
T0988 001:500 JLINK_SetBPEx(Addr = 0x1FFF0000, Type = 0xFFFFFFF2)  returns 0x0000000F (0000ms, 0854ms total)
T0988 001:500 JLINK_Go() (0003ms, 0857ms total)
T0988 001:503 JLINK_IsHalted()  returns FALSE (0001ms, 0858ms total)
T0988 001:550 JLINK_IsHalted()  returns TRUE (0006ms, 0863ms total)
T0988 001:556 JLINK_ReadReg(R15 (PC))  returns 0x1FFF0000 (0000ms, 0857ms total)
T0988 001:556 JLINK_ClrBPEx(BPHandle = 0x0000000F)  returns 0x00 (0000ms, 0857ms total)
T0988 001:556 JLINK_ReadReg(R0)  returns 0x00000000 (0000ms, 0857ms total)
T0988 001:557 JLINK_WriteReg(R0, 0x00003800)  returns 0x00 (0000ms, 0857ms total)
T0988 001:557 JLINK_WriteReg(R1, 0x00000800)  returns 0x00 (0000ms, 0857ms total)
T0988 001:557 JLINK_WriteReg(R2, 0x000000FF)  returns 0x00 (0000ms, 0857ms total)
T0988 001:557 JLINK_WriteReg(R3, 0x00000000)  returns 0x00 (0000ms, 0857ms total)
T0988 001:557 JLINK_WriteReg(R4, 0x00000000)  returns 0x00 (0000ms, 0857ms total)
T0988 001:557 JLINK_WriteReg(R5, 0x00000000)  returns 0x00 (0000ms, 0857ms total)
T0988 001:557 JLINK_WriteReg(R6, 0x00000000)  returns 0x00 (0000ms, 0857ms total)
T0988 001:557 JLINK_WriteReg(R7, 0x00000000)  returns 0x00 (0001ms, 0858ms total)
T0988 001:558 JLINK_WriteReg(R8, 0x00000000)  returns 0x00 (0000ms, 0858ms total)
T0988 001:558 JLINK_WriteReg(R9, 0x1FFF0418)  returns 0x00 (0000ms, 0858ms total)
T0988 001:558 JLINK_WriteReg(R10, 0x00000000)  returns 0x00 (0000ms, 0858ms total)
T0988 001:558 JLINK_WriteReg(R11, 0x00000000)  returns 0x00 (0000ms, 0858ms total)
T0988 001:558 JLINK_WriteReg(R12, 0x00000000)  returns 0x00 (0000ms, 0858ms total)
T0988 001:558 JLINK_WriteReg(R13 (SP), 0x1FFF0800)  returns 0x00 (0000ms, 0858ms total)
T0988 001:558 JLINK_WriteReg(R14, 0x1FFF0001)  returns 0x00 (0000ms, 0858ms total)
T0988 001:558 JLINK_WriteReg(R15 (PC), 0x1FFF0074)  returns 0x00 (0000ms, 0858ms total)
T0988 001:558 JLINK_WriteReg(XPSR, 0x01000000)  returns 0x00 (0000ms, 0858ms total)
T0988 001:558 JLINK_WriteReg(MSP, 0x1FFF0800)  returns 0x00 (0000ms, 0858ms total)
T0988 001:558 JLINK_WriteReg(PSP, 0x1FFF0800)  returns 0x00 (0000ms, 0858ms total)
T0988 001:558 JLINK_WriteReg(CFBP, 0x00000000)  returns 0x00 (0000ms, 0858ms total)
T0988 001:558 JLINK_SetBPEx(Addr = 0x1FFF0000, Type = 0xFFFFFFF2)  returns 0x00000010 (0000ms, 0858ms total)
T0988 001:558 JLINK_Go() (0003ms, 0861ms total)
T0988 001:561 JLINK_IsHalted()  returns TRUE (0006ms, 0867ms total)
T0988 001:567 JLINK_ReadReg(R15 (PC))  returns 0x1FFF0000 (0000ms, 0861ms total)
T0988 001:567 JLINK_ClrBPEx(BPHandle = 0x00000010)  returns 0x00 (0000ms, 0861ms total)
T0988 001:567 JLINK_ReadReg(R0)  returns 0x00000001 (0000ms, 0861ms total)
T0988 001:567 JLINK_WriteReg(R0, 0x00003800)  returns 0x00 (0000ms, 0861ms total)
T0988 001:567 JLINK_WriteReg(R1, 0x00000800)  returns 0x00 (0000ms, 0861ms total)
T0988 001:567 JLINK_WriteReg(R2, 0x000000FF)  returns 0x00 (0000ms, 0861ms total)
T0988 001:567 JLINK_WriteReg(R3, 0x00000000)  returns 0x00 (0001ms, 0862ms total)
T0988 001:568 JLINK_WriteReg(R4, 0x00000000)  returns 0x00 (0000ms, 0862ms total)
T0988 001:568 JLINK_WriteReg(R5, 0x00000000)  returns 0x00 (0000ms, 0862ms total)
T0988 001:568 JLINK_WriteReg(R6, 0x00000000)  returns 0x00 (0000ms, 0862ms total)
T0988 001:568 JLINK_WriteReg(R7, 0x00000000)  returns 0x00 (0000ms, 0862ms total)
T0988 001:568 JLINK_WriteReg(R8, 0x00000000)  returns 0x00 (0000ms, 0862ms total)
T0988 001:568 JLINK_WriteReg(R9, 0x1FFF0418)  returns 0x00 (0000ms, 0862ms total)
T0988 001:568 JLINK_WriteReg(R10, 0x00000000)  returns 0x00 (0000ms, 0862ms total)
T0988 001:568 JLINK_WriteReg(R11, 0x00000000)  returns 0x00 (0000ms, 0862ms total)
T0988 001:568 JLINK_WriteReg(R12, 0x00000000)  returns 0x00 (0000ms, 0862ms total)
T0988 001:568 JLINK_WriteReg(R13 (SP), 0x1FFF0800)  returns 0x00 (0000ms, 0862ms total)
T0988 001:568 JLINK_WriteReg(R14, 0x1FFF0001)  returns 0x00 (0000ms, 0862ms total)
T0988 001:568 JLINK_WriteReg(R15 (PC), 0x1FFF00CA)  returns 0x00 (0000ms, 0862ms total)
T0988 001:568 JLINK_WriteReg(XPSR, 0x01000000)  returns 0x00 (0000ms, 0862ms total)
T0988 001:568 JLINK_WriteReg(MSP, 0x1FFF0800)  returns 0x00 (0000ms, 0862ms total)
T0988 001:568 JLINK_WriteReg(PSP, 0x1FFF0800)  returns 0x00 (0000ms, 0862ms total)
T0988 001:568 JLINK_WriteReg(CFBP, 0x00000000)  returns 0x00 (0000ms, 0862ms total)
T0988 001:568 JLINK_SetBPEx(Addr = 0x1FFF0000, Type = 0xFFFFFFF2)  returns 0x00000011 (0000ms, 0862ms total)
T0988 001:568 JLINK_Go() (0003ms, 0865ms total)
T0988 001:571 JLINK_IsHalted()  returns FALSE (0001ms, 0866ms total)
T0988 001:573 JLINK_IsHalted()  returns FALSE (0001ms, 0866ms total)
T0988 001:575 JLINK_IsHalted()  returns FALSE (0001ms, 0866ms total)
T0988 001:577 JLINK_IsHalted()  returns TRUE (0006ms, 0871ms total)
T0988 001:583 JLINK_ReadReg(R15 (PC))  returns 0x1FFF0000 (0000ms, 0865ms total)
T0988 001:583 JLINK_ClrBPEx(BPHandle = 0x00000011)  returns 0x00 (0000ms, 0865ms total)
T0988 001:583 JLINK_ReadReg(R0)  returns 0x00000000 (0000ms, 0865ms total)
T0988 001:584 JLINK_WriteReg(R0, 0x00004000)  returns 0x00 (0000ms, 0865ms total)
T0988 001:584 JLINK_WriteReg(R1, 0x00000800)  returns 0x00 (0000ms, 0865ms total)
T0988 001:584 JLINK_WriteReg(R2, 0x000000FF)  returns 0x00 (0000ms, 0865ms total)
T0988 001:584 JLINK_WriteReg(R3, 0x00000000)  returns 0x00 (0000ms, 0865ms total)
T0988 001:584 JLINK_WriteReg(R4, 0x00000000)  returns 0x00 (0000ms, 0865ms total)
T0988 001:584 JLINK_WriteReg(R5, 0x00000000)  returns 0x00 (0000ms, 0865ms total)
T0988 001:584 JLINK_WriteReg(R6, 0x00000000)  returns 0x00 (0000ms, 0865ms total)
T0988 001:584 JLINK_WriteReg(R7, 0x00000000)  returns 0x00 (0000ms, 0865ms total)
T0988 001:584 JLINK_WriteReg(R8, 0x00000000)  returns 0x00 (0000ms, 0865ms total)
T0988 001:584 JLINK_WriteReg(R9, 0x1FFF0418)  returns 0x00 (0000ms, 0865ms total)
T0988 001:584 JLINK_WriteReg(R10, 0x00000000)  returns 0x00 (0001ms, 0866ms total)
T0988 001:585 JLINK_WriteReg(R11, 0x00000000)  returns 0x00 (0000ms, 0866ms total)
T0988 001:585 JLINK_WriteReg(R12, 0x00000000)  returns 0x00 (0000ms, 0866ms total)
T0988 001:585 JLINK_WriteReg(R13 (SP), 0x1FFF0800)  returns 0x00 (0000ms, 0866ms total)
T0988 001:585 JLINK_WriteReg(R14, 0x1FFF0001)  returns 0x00 (0000ms, 0866ms total)
T0988 001:585 JLINK_WriteReg(R15 (PC), 0x1FFF0074)  returns 0x00 (0000ms, 0866ms total)
T0988 001:585 JLINK_WriteReg(XPSR, 0x01000000)  returns 0x00 (0000ms, 0866ms total)
T0988 001:585 JLINK_WriteReg(MSP, 0x1FFF0800)  returns 0x00 (0000ms, 0866ms total)
T0988 001:585 JLINK_WriteReg(PSP, 0x1FFF0800)  returns 0x00 (0000ms, 0866ms total)
T0988 001:585 JLINK_WriteReg(CFBP, 0x00000000)  returns 0x00 (0000ms, 0866ms total)
T0988 001:585 JLINK_SetBPEx(Addr = 0x1FFF0000, Type = 0xFFFFFFF2)  returns 0x00000012 (0000ms, 0866ms total)
T0988 001:585 JLINK_Go() (0003ms, 0869ms total)
T0988 001:588 JLINK_IsHalted()  returns TRUE (0006ms, 0875ms total)
T0988 001:594 JLINK_ReadReg(R15 (PC))  returns 0x1FFF0000 (0000ms, 0869ms total)
T0988 001:594 JLINK_ClrBPEx(BPHandle = 0x00000012)  returns 0x00 (0000ms, 0869ms total)
T0988 001:594 JLINK_ReadReg(R0)  returns 0x00000001 (0000ms, 0869ms total)
T0988 001:594 JLINK_WriteReg(R0, 0x00004000)  returns 0x00 (0000ms, 0869ms total)
T0988 001:594 JLINK_WriteReg(R1, 0x00000800)  returns 0x00 (0000ms, 0869ms total)
T0988 001:594 JLINK_WriteReg(R2, 0x000000FF)  returns 0x00 (0001ms, 0870ms total)
T0988 001:595 JLINK_WriteReg(R3, 0x00000000)  returns 0x00 (0000ms, 0870ms total)
T0988 001:595 JLINK_WriteReg(R4, 0x00000000)  returns 0x00 (0000ms, 0870ms total)
T0988 001:595 JLINK_WriteReg(R5, 0x00000000)  returns 0x00 (0000ms, 0870ms total)
T0988 001:595 JLINK_WriteReg(R6, 0x00000000)  returns 0x00 (0000ms, 0870ms total)
T0988 001:595 JLINK_WriteReg(R7, 0x00000000)  returns 0x00 (0000ms, 0870ms total)
T0988 001:595 JLINK_WriteReg(R8, 0x00000000)  returns 0x00 (0000ms, 0870ms total)
T0988 001:595 JLINK_WriteReg(R9, 0x1FFF0418)  returns 0x00 (0000ms, 0870ms total)
T0988 001:595 JLINK_WriteReg(R10, 0x00000000)  returns 0x00 (0000ms, 0870ms total)
T0988 001:595 JLINK_WriteReg(R11, 0x00000000)  returns 0x00 (0000ms, 0870ms total)
T0988 001:595 JLINK_WriteReg(R12, 0x00000000)  returns 0x00 (0000ms, 0870ms total)
T0988 001:595 JLINK_WriteReg(R13 (SP), 0x1FFF0800)  returns 0x00 (0000ms, 0870ms total)
T0988 001:595 JLINK_WriteReg(R14, 0x1FFF0001)  returns 0x00 (0000ms, 0870ms total)
T0988 001:595 JLINK_WriteReg(R15 (PC), 0x1FFF00CA)  returns 0x00 (0000ms, 0870ms total)
T0988 001:595 JLINK_WriteReg(XPSR, 0x01000000)  returns 0x00 (0000ms, 0870ms total)
T0988 001:595 JLINK_WriteReg(MSP, 0x1FFF0800)  returns 0x00 (0000ms, 0870ms total)
T0988 001:595 JLINK_WriteReg(PSP, 0x1FFF0800)  returns 0x00 (0000ms, 0870ms total)
T0988 001:595 JLINK_WriteReg(CFBP, 0x00000000)  returns 0x00 (0000ms, 0870ms total)
T0988 001:595 JLINK_SetBPEx(Addr = 0x1FFF0000, Type = 0xFFFFFFF2)  returns 0x00000013 (0000ms, 0870ms total)
T0988 001:595 JLINK_Go() (0003ms, 0873ms total)
T0988 001:598 JLINK_IsHalted()  returns FALSE (0001ms, 0874ms total)
T0988 001:643 JLINK_IsHalted()  returns TRUE (0006ms, 0879ms total)
T0988 001:649 JLINK_ReadReg(R15 (PC))  returns 0x1FFF0000 (0000ms, 0873ms total)
T0988 001:649 JLINK_ClrBPEx(BPHandle = 0x00000013)  returns 0x00 (0000ms, 0873ms total)
T0988 001:649 JLINK_ReadReg(R0)  returns 0x00000000 (0000ms, 0873ms total)
T0988 001:650 JLINK_WriteReg(R0, 0x00004800)  returns 0x00 (0000ms, 0873ms total)
T0988 001:650 JLINK_WriteReg(R1, 0x00000800)  returns 0x00 (0000ms, 0873ms total)
